
T1B54 3392:016 SEGGER J-Link V4.58a Log File (0002ms, 0005ms total)
T1B54 3392:016 DLL Compiled: Dec  5 2012 18:38:08 (0002ms, 0005ms total)
T1B54 3392:016 Logging started @ 2020-12-23 12:06 (0002ms, 0005ms total)
T1B54 3392:018 JLINK_SetWarnOutHandler(...) (0001ms, 0006ms total)
T1B54 3392:019 JLINK_OpenEx(...)
Firmware: J-Link ARM V8 compiled Nov 28 2014 13:44:46
Hardware: V8.00
Feature(s): RDI,FlashDL,FlashBP,JFlash,GDBFULL  returns O.K. (0039ms, 0045ms total)
T1B54 3392:058 JLINK_GetEmuCaps()  returns 0xB9FF7BBF (0000ms, 0045ms total)
T1B54 3392:059 JLINK_TIF_GetAvailable(...) (0000ms, 0045ms total)
T1B54 3392:059 JLINK_SetErrorOutHandler(...) (0000ms, 0045ms total)
T1B54 3392:059 JLINK_ExecCommand("ProjectFile = "D:\project\RA8876+\RA8889_API_Demo_V1.1\JLinkSettings.ini"", ...)  returns 0x00 (0008ms, 0053ms total)
T1B54 3392:088 JLINK_ExecCommand("Device = STM32F103VE", ...)
                JLINK_ExecCommand("map ram 0x20000000 - 0x2000FFFF", ...)  returns 0x00 (0000ms, 0000ms total)
                JLINK_AddMirrorAreaEx(Addr = 0x00000000, Size = 0x00000000) (0000ms, 0000ms total)
              Device "STM32F103VE" selected (512 KB flash, 64 KB RAM).  returns 0x00 (0032ms, 0085ms total)
T1B54 3392:121 JLINK_ExecCommand("DisableConnectionTimeout", ...)  returns 0x00 (0000ms, 0086ms total)
T1B54 3392:121 JLINK_GetHardwareVersion()  returns 0x13880 (0000ms, 0086ms total)
T1B54 3392:121 JLINK_GetDLLVersion()  returns 45801 (0000ms, 0086ms total)
T1B54 3392:121 JLINK_GetFirmwareString(...) (0000ms, 0086ms total)
T1B54 3392:239 JLINK_GetDLLVersion()  returns 45801 (0001ms, 0087ms total)
T1B54 3392:240 JLINK_GetCompileDateTime() (0000ms, 0087ms total)
T1B54 3392:258 JLINK_GetFirmwareString(...) (0000ms, 0087ms total)
T1B54 3392:282 JLINK_GetHardwareVersion()  returns 0x13880 (0000ms, 0087ms total)
T1B54 3392:376 JLINK_TIF_Select(JLINKARM_TIF_JTAG)  returns 0x00 (0000ms, 0087ms total)
T1B54 3392:376 JLINK_SetSpeed(5000) (0003ms, 0090ms total)
T1B54 3392:379 JLINK_GetIdData(...) >0x2F8 JTAG>TotalIRLen = 9, IRPrint = 0x0011 >0x30 JTAG> >0x210 JTAG> >0x40 JTAG> >0x40 JTAG> >0x40 JTAG> >0x30 JTAG> >0x40 JTAG> >0x40 JTAG> >0x40 JTAG> >0x40 JTAG> >0x40 JTAG> >0x40 JTAG> >0x40 JTAG> >0x40 JTAG> >0x40 JTAG> >0x40 JTAG> >0x2F8 JTAG>TotalIRLen = 9, IRPrint = 0x0011 >0x30 JTAG> >0x210 JTAG> >0x80 JTAG> >0x40 JTAG> >0x40 JTAG> >0x50 JTAG> >0x40 JTAG> >0x40 JTAG> >0x40 JTAG> >0x50 JTAG> >0x40 JTAG> >0x40 JTAG> >0x40 JTAG> >0x30 JTAG> >0x40 JTAG>
 >0x50 JTAG> >0x40 JTAG> >0x38 JTAG> >0x80 JTAG> >0x40 JTAG> >0x40 JTAG> >0x50 JTAG> >0x40 JTAG> >0x40 JTAG> >0x40 JTAG> >0x50 JTAG> >0x40 JTAG> >0x40 JTAG> >0x30 JTAG> >0x40 JTAG> >0x40 JTAG> >0x40 JTAG> >0x40 JTAG> >0x40 JTAG> >0x50 JTAG> >0x40 JTAG> >0x80 JTAG> >0x40 JTAG> >0x30 JTAG> >0x40 JTAG> >0x40 JTAG> >0x40 JTAG> >0x40 JTAG> >0x40 JTAG> >0x50 JTAG> >0x40 JTAG> >0x80 JTAG> >0x40 JTAG> >0x30 JTAG> >0x40 JTAG> >0x50 JTAG> >0x40 JTAG> >0x40 JTAG> >0x40 JTAG> >0x30 JTAG> >0x40 JTAG> >0x50 JTAG>
 >0x40 JTAG>Found Cortex-M3 r1p1, Little endian. >0x50 JTAG> >0x50 JTAG> >0x40 JTAG> >0x40 JTAG> >0x30 JTAG> >0x30 JTAG> >0x50 JTAG> >0x40 JTAG> >0x80 JTAG> >0x40 JTAG> >0x30 JTAG> >0x40 JTAG> >0x50 JTAG> >0x40 JTAG> >0x40 JTAG> >0x40 JTAG> >0x30 JTAG> >0x30 JTAG> >0x50 JTAG> >0x40 JTAG> >0x80 JTAG> >0x40 JTAG> >0x30 JTAG> >0x40 JTAG> >0x50 JTAG> >0x40 JTAG>TPIU fitted. >0x40 JTAG> >0x40 JTAG> >0x30 JTAG> >0x40 JTAG> >0x50 JTAG> >0x40 JTAG>ETM fitted. >0x40 JTAG> >0x40 JTAG> >0x30 JTAG> >0x40 JTAG>
 >0x50 JTAG> >0x40 JTAG> >0x40 JTAG> >0x40 JTAG> >0x30 JTAG> >0x40 JTAG> >0x50 JTAG> >0x40 JTAG>FPUnit: 6 code (BP) slots and 2 literal slots >0x40 JTAG> >0x40 JTAG> >0x30 JTAG> >0x40 JTAG> >0x50 JTAG> >0x40 JTAG> >0x40 JTAG> >0x40 JTAG> >0x30 JTAG> >0x30 JTAG> >0x50 JTAG> >0x40 JTAG> >0x80 JTAG> >0x40 JTAG> >0x30 JTAG> >0x40 JTAG> >0x50 JTAG> >0x40 JTAG> >0x40 JTAG> >0x40 JTAG> >0x30 JTAG> >0x30 JTAG> >0x50 JTAG> >0x40 JTAG> ScanLen=9 NumDevices=2 aId[0]=0x3BA00477 aIrRead[0]=0 aScanLen[0]=0
 aScanRead[0]=0 (0251ms, 0341ms total)
T1B54 3392:630 JLINK_JTAG_GetDeviceID(DeviceIndex = 0)  returns 0x3BA00477 (0000ms, 0341ms total)
T1B54 3392:630 JLINK_JTAG_GetDeviceInfo(DeviceIndex = 0)  returns 0x00 (0000ms, 0341ms total)
T1B54 3392:630 JLINK_JTAG_GetDeviceID(DeviceIndex = 1)  returns 0x6414041 (0000ms, 0341ms total)
T1B54 3392:630 JLINK_JTAG_GetDeviceInfo(DeviceIndex = 1)  returns 0x00 (0000ms, 0341ms total)
T1B54 3392:630 JLINK_GetDLLVersion()  returns 45801 (0000ms, 0341ms total)
T1B54 3392:630 JLINK_CORE_GetFound()  returns 0x30000FF (0001ms, 0342ms total)
T1B54 3392:651 JLINK_GetDebugInfo(0x100) -- Value=0xE00FF003  returns 0x00 (0000ms, 0342ms total)
T1B54 3392:651 JLINK_GetDebugInfo(0x101)  returns 0xFFFFFFFF (0000ms, 0342ms total)
T1B54 3392:651 JLINK_ReadMemEx(0xE0041FF0, 0x0010 Bytes, ..., AccessWidth = 33554436) -- CPU is running -- CPU_ReadMem(16 bytes @ 0xE0041FF0) -- Data:  0D 00 00 00 90 00 00 00 05 00 00 00 B1 00 00 00  returns 0x10 (0005ms, 0347ms total)
T1B54 3392:656 JLINK_GetDebugInfo(0x102)  returns 0xFFFFFFFF (0000ms, 0347ms total)
T1B54 3392:656 JLINK_GetDebugInfo(0x103)  returns 0xFFFFFFFF (0000ms, 0347ms total)
T1B54 3392:656 JLINK_ReadMemEx(0xE0040FF0, 0x0010 Bytes, ..., AccessWidth = 33554436) -- CPU is running -- CPU_ReadMem(16 bytes @ 0xE0040FF0) -- Data:  0D 00 00 00 90 00 00 00 05 00 00 00 B1 00 00 00  returns 0x10 (0001ms, 0348ms total)
T1B54 3392:657 JLINK_GetDebugInfo(0x104)  returns 0xFFFFFFFF (0001ms, 0349ms total)
T1B54 3392:658 JLINK_GetDebugInfo(0x105)  returns 0xFFFFFFFF (0000ms, 0349ms total)
T1B54 3392:658 JLINK_GetDebugInfo(0x106)  returns 0xFFFFFFFF (0000ms, 0349ms total)
T1B54 3392:658 JLINK_GetDebugInfo(0x107)  returns 0xFFFFFFFF (0000ms, 0349ms total)
T1B54 3392:658 JLINK_GetDebugInfo(0x10C)  returns 0xFFFFFFFF (0000ms, 0349ms total)
T1B54 3392:658 JLINK_GetDebugInfo(0x01)  returns 0xFFFFFFFF (0000ms, 0349ms total)
T1B54 3392:658 JLINK_GetDeviceFamily()  returns 3 (0000ms, 0349ms total)
T1B54 3392:658 JLINK_ReadMemU32(0xE000ED00, 0x0001 Items, ...) -- CPU is running -- CPU_ReadMem(4 bytes @ 0xE000ED00) -- Data:  31 C2 1F 41  returns 0x01 (0001ms, 0350ms total)
T1B54 3392:659 JLINK_GetDebugInfo(0x10F)  returns 0xFFFFFFFF (0000ms, 0350ms total)
T1B54 3392:659 JLINK_SetResetType(JLINKARM_RESET_TYPE_NORMAL)  returns JLINKARM_RESET_TYPE_NORMAL (0000ms, 0350ms total)
T1B54 3392:659 JLINK_Reset() >0x88 JTAG> >0x80 JTAG> >0x40 JTAG> >0x40 JTAG> >0x50 JTAG> >0x40 JTAG> >0x40 JTAG> >0x40 JTAG> >0x50 JTAG> >0x40 JTAG> >0x40 JTAG> >0x30 JTAG> >0x40 JTAG> >0x40 JTAG> >0x40 JTAG> >0x40 JTAG> >0x40 JTAG> >0x50 JTAG> >0x40 JTAG> >0x80 JTAG> >0x40 JTAG> >0x30 JTAG> >0x40 JTAG> >0x40 JTAG> >0x40 JTAG> >0x40 JTAG> >0x40 JTAG> >0x50 JTAG> >0x40 JTAG> >0x80 JTAG> >0x40 JTAG> >0x30 JTAG> >0x40 JTAG> >0x50 JTAG> >0x40 JTAG> >0x40 JTAG> >0x40 JTAG> >0x30 JTAG> >0x40 JTAG> >0x50 JTAG>
 >0x40 JTAG>Found Cortex-M3 r1p1, Little endian. >0x50 JTAG> >0x50 JTAG> >0x40 JTAG> >0x40 JTAG> >0x30 JTAG> >0x30 JTAG> >0x50 JTAG> >0x40 JTAG> >0x80 JTAG> >0x40 JTAG> >0x30 JTAG> >0x40 JTAG> >0x50 JTAG> >0x40 JTAG> >0x40 JTAG> >0x40 JTAG> >0x30 JTAG> >0x40 JTAG> >0x50 JTAG> >0x40 JTAG>TPIU fitted. >0x40 JTAG> >0x40 JTAG> >0x30 JTAG> >0x40 JTAG> >0x50 JTAG> >0x40 JTAG>ETM fitted. >0x40 JTAG> >0x40 JTAG> >0x30 JTAG> >0x40 JTAG> >0x50 JTAG> >0x40 JTAG> >0x40 JTAG> >0x40 JTAG> >0x30 JTAG> >0x40 JTAG>
 >0x50 JTAG> >0x40 JTAG>FPUnit: 6 code (BP) slots and 2 literal slots >0x40 JTAG> >0x40 JTAG> >0x30 JTAG> >0x40 JTAG> >0x50 JTAG> >0x40 JTAG> >0x40 JTAG> >0x40 JTAG> >0x30 JTAG> >0x40 JTAG> >0x50 JTAG> >0x40 JTAG> >0x40 JTAG> >0x40 JTAG> >0x30 JTAG> >0x30 JTAG> >0x50 JTAG> >0x40 JTAG> -- CPU is running -- CPU_WriteMem(4 bytes @ 0xE000EDF0) -- CPU is running -- CPU_WriteMem(4 bytes @ 0xE000EDFC) -- CPU is running -- CPU_WriteMem(4 bytes @ 0xE000ED0C) -- CPU is running -- CPU_ReadMem(4 bytes @ 0xE000EDF0)
 -- CPU is running -- CPU_ReadMem(4 bytes @ 0xE000EDF0) -- CPU is running -- CPU_WriteMem(4 bytes @ 0xE000EDF0) -- CPU is running -- CPU_WriteMem(4 bytes @ 0xE000EDFC) -- CPU is running -- CPU_ReadMem(4 bytes @ 0xE000EDF0) >0xD0 JTAG> >0x40 JTAG> >0x30 JTAG> >0x40 JTAG> >0x50 JTAG> >0x40 JTAG> -- CPU_WriteMem(4 bytes @ 0xE000EDFC) -- CPU_WriteMem(4 bytes @ 0xE0001028) -- CPU_WriteMem(4 bytes @ 0xE0001038) -- CPU_WriteMem(4 bytes @ 0xE0001048) -- CPU_WriteMem(4 bytes @ 0xE0001058)
 -- CPU_WriteMem(4 bytes @ 0xE0002000) (0165ms, 0515ms total)
T1B54 3392:824 JLINK_Halt()  returns 0x00 (0000ms, 0515ms total)
T1B54 3392:824 JLINK_ReadMemU32(0xE000EDF0, 0x0001 Items, ...) -- CPU_ReadMem(4 bytes @ 0xE000EDF0) -- Data:  03 00 03 00  returns 0x01 (0001ms, 0516ms total)
T1B54 3392:827 JLINK_WriteU32(0xE000EDF0, 0xA05F0003) -- CPU_WriteMem(4 bytes @ 0xE000EDF0)  returns 0x00 (0001ms, 0517ms total)
T1B54 3392:828 JLINK_WriteU32(0xE000EDFC, 0x01000000) -- CPU_WriteMem(4 bytes @ 0xE000EDFC)  returns 0x00 (0001ms, 0518ms total)
T1B54 3392:909 JLINK_GetHWStatus(...)  returns 0x00 (0001ms, 0519ms total)
T1B54 3392:967 JLINK_GetNumBPUnits(Type = 0xFFFFFF00)  returns 0x06 (0000ms, 0519ms total)
T1B54 3392:967 JLINK_GetNumBPUnits(Type = 0xF0)  returns 0x2000 (0000ms, 0519ms total)
T1B54 3392:967 JLINK_GetNumWPUnits()  returns 0x04 (0000ms, 0519ms total)
T1B54 3393:020 JLINK_GetSpeed()  returns 0x12C0 (0000ms, 0519ms total)
T1B54 3393:052 JLINK_ReadMemU32(0xE000E004, 0x0001 Items, ...) -- CPU_ReadMem(4 bytes @ 0xE000E004) -- Data:  01 00 00 00  returns 0x01 (0001ms, 0520ms total)
T1B54 3393:053 JLINK_ReadMemU32(0xE000E004, 0x0001 Items, ...) -- CPU_ReadMem(4 bytes @ 0xE000E004) -- Data:  01 00 00 00  returns 0x01 (0001ms, 0521ms total)
T1B54 3393:054 JLINK_WriteMemEx(0xE0001000, 0x001C Bytes, ..., AccessWidth = 33554436) -- Data:  01 00 00 00 00 00 00 00 00 00 00 00 00 00 00 00 ... -- CPU_WriteMem(28 bytes @ 0xE0001000)  returns 0x1C (0001ms, 0522ms total)
T1B54 3393:055 JLINK_Halt()  returns 0x00 (0000ms, 0522ms total)
T1B54 3393:055 JLINK_IsHalted()  returns TRUE (0001ms, 0523ms total)
T1B54 3393:076 JLINK_WriteMem(0x20000000, 0x0164 Bytes, ...) -- Data:  00 BE 0A E0 0D 78 2D 06 68 40 08 24 40 00 00 D3 ... -- CPU_WriteMem(356 bytes @ 0x20000000)  returns 0x164 (0004ms, 0526ms total)
T1B54 3393:080 JLINK_WriteReg(R0, 0x08000000)  returns 0x00 (0000ms, 0526ms total)
T1B54 3393:080 JLINK_WriteReg(R1, 0x00B71B00)  returns 0x00 (0000ms, 0526ms total)
T1B54 3393:080 JLINK_WriteReg(R2, 0x00000001)  returns 0x00 (0000ms, 0526ms total)
T1B54 3393:080 JLINK_WriteReg(R3, 0x00000000)  returns 0x00 (0000ms, 0526ms total)
T1B54 3393:080 JLINK_WriteReg(R4, 0x00000000)  returns 0x00 (0001ms, 0527ms total)
T1B54 3393:081 JLINK_WriteReg(R5, 0x00000000)  returns 0x00 (0000ms, 0527ms total)
T1B54 3393:081 JLINK_WriteReg(R6, 0x00000000)  returns 0x00 (0000ms, 0527ms total)
T1B54 3393:081 JLINK_WriteReg(R7, 0x00000000)  returns 0x00 (0000ms, 0527ms total)
T1B54 3393:081 JLINK_WriteReg(R8, 0x00000000)  returns 0x00 (0000ms, 0527ms total)
T1B54 3393:081 JLINK_WriteReg(R9, 0x20000160)  returns 0x00 (0000ms, 0527ms total)
T1B54 3393:081 JLINK_WriteReg(R10, 0x00000000)  returns 0x00 (0000ms, 0527ms total)
T1B54 3393:081 JLINK_WriteReg(R11, 0x00000000)  returns 0x00 (0000ms, 0527ms total)
T1B54 3393:081 JLINK_WriteReg(R12, 0x00000000)  returns 0x00 (0001ms, 0528ms total)
T1B54 3393:082 JLINK_WriteReg(R13, 0x20000800)  returns 0x00 (0000ms, 0528ms total)
T1B54 3393:082 JLINK_WriteReg(R14, 0x20000001)  returns 0x00 (0000ms, 0528ms total)
T1B54 3393:082 JLINK_WriteReg(R15, 0x20000038)  returns 0x00 (0000ms, 0528ms total)
T1B54 3393:082 JLINK_WriteReg(XPSR, 0x01000000)  returns 0x00 (0000ms, 0528ms total)
T1B54 3393:082 JLINK_WriteReg(MSP, 0x20000800)  returns 0x00 (0000ms, 0528ms total)
T1B54 3393:082 JLINK_WriteReg(PSP, 0x20000800)  returns 0x00 (0000ms, 0528ms total)
T1B54 3393:082 JLINK_WriteReg(CFBP, 0x00000000)  returns 0x00 (0000ms, 0528ms total)
T1B54 3393:083 JLINK_SetBPEx(Addr = 0x20000000, Type = 0xFFFFFFF2) -- CPU_ReadMem(2 bytes @ 0x20000000)  returns 0x00000001 (0001ms, 0530ms total)
T1B54 3393:084 JLINK_Go() -- CPU_WriteMem(2 bytes @ 0x20000000) -- CPU_WriteMem(4 bytes @ 0xE0002008) -- CPU_WriteMem(4 bytes @ 0xE000200C) -- CPU_WriteMem(4 bytes @ 0xE0002010) -- CPU_WriteMem(4 bytes @ 0xE0002014) -- CPU_WriteMem(4 bytes @ 0xE0002018) -- CPU_WriteMem(4 bytes @ 0xE000201C) (0007ms, 0537ms total)
T1B54 3393:091 JLINK_IsHalted() -- CPU_ReadMem(2 bytes @ 0x20000000)  returns TRUE (0004ms, 0541ms total)
T1B54 3393:096 JLINK_ReadReg(R15)  returns 0x20000000 (0000ms, 0537ms total)
T1B54 3393:096 JLINK_ClrBPEx(BPHandle = 0x00000001)  returns 0x00 (0000ms, 0537ms total)
T1B54 3393:096 JLINK_ReadReg(R0)  returns 0x00000000 (0000ms, 0537ms total)
T1B54 3393:097 JLINK_WriteReg(R0, 0x08000000)  returns 0x00 (0001ms, 0538ms total)
T1B54 3393:098 JLINK_WriteReg(R1, 0x00B71B00)  returns 0x00 (0000ms, 0538ms total)
T1B54 3393:098 JLINK_WriteReg(R2, 0x00000001)  returns 0x00 (0000ms, 0538ms total)
T1B54 3393:098 JLINK_WriteReg(R3, 0x00000000)  returns 0x00 (0000ms, 0538ms total)
T1B54 3393:098 JLINK_WriteReg(R4, 0x00000000)  returns 0x00 (0000ms, 0538ms total)
T1B54 3393:098 JLINK_WriteReg(R5, 0x00000000)  returns 0x00 (0000ms, 0538ms total)
T1B54 3393:098 JLINK_WriteReg(R6, 0x00000000)  returns 0x00 (0000ms, 0538ms total)
T1B54 3393:098 JLINK_WriteReg(R7, 0x00000000)  returns 0x00 (0000ms, 0538ms total)
T1B54 3393:098 JLINK_WriteReg(R8, 0x00000000)  returns 0x00 (0000ms, 0538ms total)
T1B54 3393:099 JLINK_WriteReg(R9, 0x20000160)  returns 0x00 (0000ms, 0539ms total)
T1B54 3393:099 JLINK_WriteReg(R10, 0x00000000)  returns 0x00 (0000ms, 0539ms total)
T1B54 3393:099 JLINK_WriteReg(R11, 0x00000000)  returns 0x00 (0000ms, 0539ms total)
T1B54 3393:099 JLINK_WriteReg(R12, 0x00000000)  returns 0x00 (0000ms, 0539ms total)
T1B54 3393:099 JLINK_WriteReg(R13, 0x20000800)  returns 0x00 (0000ms, 0539ms total)
T1B54 3393:099 JLINK_WriteReg(R14, 0x20000001)  returns 0x00 (0000ms, 0539ms total)
T1B54 3393:099 JLINK_WriteReg(R15, 0x2000007C)  returns 0x00 (0000ms, 0539ms total)
T1B54 3393:099 JLINK_WriteReg(XPSR, 0x01000000)  returns 0x00 (0000ms, 0539ms total)
T1B54 3393:099 JLINK_WriteReg(MSP, 0x20000800)  returns 0x00 (0001ms, 0540ms total)
T1B54 3393:100 JLINK_WriteReg(PSP, 0x20000800)  returns 0x00 (0000ms, 0540ms total)
T1B54 3393:100 JLINK_WriteReg(CFBP, 0x00000000)  returns 0x00 (0000ms, 0540ms total)
T1B54 3393:100 JLINK_SetBPEx(Addr = 0x20000000, Type = 0xFFFFFFF2)  returns 0x00000002 (0000ms, 0540ms total)
T1B54 3393:100 JLINK_Go() (0002ms, 0542ms total)
T1B54 3393:102 JLINK_IsHalted()  returns FALSE (0000ms, 0542ms total)
T1B54 3393:457 JLINK_IsHalted() -- CPU_ReadMem(2 bytes @ 0x20000000)  returns TRUE (0004ms, 0546ms total)
T1B54 3393:461 JLINK_ReadReg(R15)  returns 0x20000000 (0000ms, 0542ms total)
T1B54 3393:461 JLINK_ClrBPEx(BPHandle = 0x00000002)  returns 0x00 (0000ms, 0542ms total)
T1B54 3393:461 JLINK_ReadReg(R0)  returns 0x00000000 (0000ms, 0542ms total)
T1B54 3393:518 JLINK_WriteReg(R0, 0x00000001)  returns 0x00 (0000ms, 0542ms total)
T1B54 3393:518 JLINK_WriteReg(R1, 0x00B71B00)  returns 0x00 (0000ms, 0542ms total)
T1B54 3393:519 JLINK_WriteReg(R2, 0x00000001)  returns 0x00 (0000ms, 0542ms total)
T1B54 3393:519 JLINK_WriteReg(R3, 0x00000000)  returns 0x00 (0000ms, 0542ms total)
T1B54 3393:519 JLINK_WriteReg(R4, 0x00000000)  returns 0x00 (0000ms, 0542ms total)
T1B54 3393:519 JLINK_WriteReg(R5, 0x00000000)  returns 0x00 (0000ms, 0542ms total)
T1B54 3393:519 JLINK_WriteReg(R6, 0x00000000)  returns 0x00 (0000ms, 0542ms total)
T1B54 3393:519 JLINK_WriteReg(R7, 0x00000000)  returns 0x00 (0000ms, 0542ms total)
T1B54 3393:519 JLINK_WriteReg(R8, 0x00000000)  returns 0x00 (0000ms, 0542ms total)
T1B54 3393:519 JLINK_WriteReg(R9, 0x20000160)  returns 0x00 (0000ms, 0542ms total)
T1B54 3393:519 JLINK_WriteReg(R10, 0x00000000)  returns 0x00 (0001ms, 0543ms total)
T1B54 3393:520 JLINK_WriteReg(R11, 0x00000000)  returns 0x00 (0000ms, 0543ms total)
T1B54 3393:520 JLINK_WriteReg(R12, 0x00000000)  returns 0x00 (0000ms, 0543ms total)
T1B54 3393:520 JLINK_WriteReg(R13, 0x20000800)  returns 0x00 (0000ms, 0543ms total)
T1B54 3393:520 JLINK_WriteReg(R14, 0x20000001)  returns 0x00 (0000ms, 0543ms total)
T1B54 3393:520 JLINK_WriteReg(R15, 0x2000006A)  returns 0x00 (0000ms, 0543ms total)
T1B54 3393:520 JLINK_WriteReg(XPSR, 0x01000000)  returns 0x00 (0000ms, 0543ms total)
T1B54 3393:521 JLINK_WriteReg(MSP, 0x20000800)  returns 0x00 (0000ms, 0543ms total)
T1B54 3393:521 JLINK_WriteReg(PSP, 0x20000800)  returns 0x00 (0000ms, 0543ms total)
T1B54 3393:521 JLINK_WriteReg(CFBP, 0x00000000)  returns 0x00 (0000ms, 0543ms total)
T1B54 3393:521 JLINK_SetBPEx(Addr = 0x20000000, Type = 0xFFFFFFF2)  returns 0x00000003 (0000ms, 0543ms total)
T1B54 3393:521 JLINK_Go() (0001ms, 0544ms total)
T1B54 3393:523 JLINK_IsHalted() -- CPU_ReadMem(2 bytes @ 0x20000000)  returns TRUE (0004ms, 0549ms total)
T1B54 3393:527 JLINK_ReadReg(R15)  returns 0x20000000 (0000ms, 0545ms total)
T1B54 3393:527 JLINK_ClrBPEx(BPHandle = 0x00000003)  returns 0x00 (0000ms, 0545ms total)
T1B54 3393:527 JLINK_ReadReg(R0)  returns 0x00000000 (0001ms, 0546ms total)
T1B54 3393:562 JLINK_WriteMem(0x20000000, 0x0164 Bytes, ...) -- Data:  00 BE 0A E0 0D 78 2D 06 68 40 08 24 40 00 00 D3 ... -- CPU_WriteMem(356 bytes @ 0x20000000)  returns 0x164 (0004ms, 0550ms total)
T1B54 3393:566 JLINK_WriteReg(R0, 0x08000000)  returns 0x00 (0000ms, 0550ms total)
T1B54 3393:567 JLINK_WriteReg(R1, 0x00B71B00)  returns 0x00 (0000ms, 0551ms total)
T1B54 3393:567 JLINK_WriteReg(R2, 0x00000002)  returns 0x00 (0000ms, 0551ms total)
T1B54 3393:567 JLINK_WriteReg(R3, 0x00000000)  returns 0x00 (0000ms, 0551ms total)
T1B54 3393:567 JLINK_WriteReg(R4, 0x00000000)  returns 0x00 (0000ms, 0551ms total)
T1B54 3393:567 JLINK_WriteReg(R5, 0x00000000)  returns 0x00 (0000ms, 0551ms total)
T1B54 3393:567 JLINK_WriteReg(R6, 0x00000000)  returns 0x00 (0000ms, 0551ms total)
T1B54 3393:567 JLINK_WriteReg(R7, 0x00000000)  returns 0x00 (0000ms, 0551ms total)
T1B54 3393:567 JLINK_WriteReg(R8, 0x00000000)  returns 0x00 (0000ms, 0551ms total)
T1B54 3393:567 JLINK_WriteReg(R9, 0x20000160)  returns 0x00 (0001ms, 0552ms total)
T1B54 3393:568 JLINK_WriteReg(R10, 0x00000000)  returns 0x00 (0000ms, 0552ms total)
T1B54 3393:568 JLINK_WriteReg(R11, 0x00000000)  returns 0x00 (0000ms, 0552ms total)
T1B54 3393:568 JLINK_WriteReg(R12, 0x00000000)  returns 0x00 (0000ms, 0552ms total)
T1B54 3393:568 JLINK_WriteReg(R13, 0x20000800)  returns 0x00 (0000ms, 0552ms total)
T1B54 3393:568 JLINK_WriteReg(R14, 0x20000001)  returns 0x00 (0000ms, 0552ms total)
T1B54 3393:568 JLINK_WriteReg(R15, 0x20000038)  returns 0x00 (0000ms, 0552ms total)
T1B54 3393:568 JLINK_WriteReg(XPSR, 0x01000000)  returns 0x00 (0000ms, 0552ms total)
T1B54 3393:568 JLINK_WriteReg(MSP, 0x20000800)  returns 0x00 (0000ms, 0552ms total)
T1B54 3393:568 JLINK_WriteReg(PSP, 0x20000800)  returns 0x00 (0001ms, 0553ms total)
T1B54 3393:569 JLINK_WriteReg(CFBP, 0x00000000)  returns 0x00 (0000ms, 0553ms total)
T1B54 3393:569 JLINK_SetBPEx(Addr = 0x20000000, Type = 0xFFFFFFF2) -- CPU_ReadMem(2 bytes @ 0x20000000)  returns 0x00000004 (0001ms, 0554ms total)
T1B54 3393:570 JLINK_Go() -- CPU_WriteMem(2 bytes @ 0x20000000) (0003ms, 0557ms total)
T1B54 3393:573 JLINK_IsHalted() -- CPU_ReadMem(2 bytes @ 0x20000000)  returns TRUE (0004ms, 0561ms total)
T1B54 3393:577 JLINK_ReadReg(R15)  returns 0x20000000 (0000ms, 0557ms total)
T1B54 3393:577 JLINK_ClrBPEx(BPHandle = 0x00000004)  returns 0x00 (0000ms, 0557ms total)
T1B54 3393:577 JLINK_ReadReg(R0)  returns 0x00000000 (0000ms, 0557ms total)
T1B54 3393:579 JLINK_WriteMem(0x20000164, 0x029C Bytes, ...) -- Data:  00 04 00 20 47 01 00 08 A9 10 00 08 3D 0E 00 08 ... -- CPU_WriteMem(668 bytes @ 0x20000164)  returns 0x29C (0006ms, 0563ms total)
T1B54 3393:585 JLINK_WriteMem(0x20000400, 0x0164 Bytes, ...) -- Data:  66 68 68 67 66 68 00 00 10 B5 4F F0 C0 42 5A 23 ... -- CPU_WriteMem(356 bytes @ 0x20000400)  returns 0x164 (0003ms, 0566ms total)
T1B54 3393:588 JLINK_WriteReg(R0, 0x08000000)  returns 0x00 (0001ms, 0567ms total)
T1B54 3393:589 JLINK_WriteReg(R1, 0x00000400)  returns 0x00 (0000ms, 0567ms total)
T1B54 3393:589 JLINK_WriteReg(R2, 0x20000164)  returns 0x00 (0000ms, 0567ms total)
T1B54 3393:589 JLINK_WriteReg(R3, 0x00000000)  returns 0x00 (0000ms, 0567ms total)
T1B54 3393:589 JLINK_WriteReg(R4, 0x00000000)  returns 0x00 (0000ms, 0567ms total)
T1B54 3393:589 JLINK_WriteReg(R5, 0x00000000)  returns 0x00 (0000ms, 0567ms total)
T1B54 3393:589 JLINK_WriteReg(R6, 0x00000000)  returns 0x00 (0000ms, 0567ms total)
T1B54 3393:589 JLINK_WriteReg(R7, 0x00000000)  returns 0x00 (0000ms, 0567ms total)
T1B54 3393:589 JLINK_WriteReg(R8, 0x00000000)  returns 0x00 (0001ms, 0568ms total)
T1B54 3393:590 JLINK_WriteReg(R9, 0x20000160)  returns 0x00 (0000ms, 0568ms total)
T1B54 3393:590 JLINK_WriteReg(R10, 0x00000000)  returns 0x00 (0000ms, 0568ms total)
T1B54 3393:590 JLINK_WriteReg(R11, 0x00000000)  returns 0x00 (0000ms, 0568ms total)
T1B54 3393:590 JLINK_WriteReg(R12, 0x00000000)  returns 0x00 (0000ms, 0568ms total)
T1B54 3393:590 JLINK_WriteReg(R13, 0x20000800)  returns 0x00 (0000ms, 0568ms total)
T1B54 3393:590 JLINK_WriteReg(R14, 0x20000001)  returns 0x00 (0001ms, 0569ms total)
T1B54 3393:591 JLINK_WriteReg(R15, 0x200000F4)  returns 0x00 (0000ms, 0569ms total)
T1B54 3393:591 JLINK_WriteReg(XPSR, 0x01000000)  returns 0x00 (0000ms, 0569ms total)
T1B54 3393:591 JLINK_WriteReg(MSP, 0x20000800)  returns 0x00 (0000ms, 0569ms total)
T1B54 3393:591 JLINK_WriteReg(PSP, 0x20000800)  returns 0x00 (0000ms, 0569ms total)
T1B54 3393:591 JLINK_WriteReg(CFBP, 0x00000000)  returns 0x00 (0000ms, 0569ms total)
T1B54 3393:591 JLINK_SetBPEx(Addr = 0x20000000, Type = 0xFFFFFFF2)  returns 0x00000005 (0000ms, 0569ms total)
T1B54 3393:591 JLINK_Go() (0003ms, 0572ms total)
T1B54 3393:594 JLINK_IsHalted()  returns FALSE (0000ms, 0572ms total)
T1B54 3393:631 JLINK_IsHalted() -- CPU_ReadMem(2 bytes @ 0x20000000)  returns TRUE (0004ms, 0576ms total)
T1B54 3393:635 JLINK_ReadReg(R15)  returns 0x20000000 (0000ms, 0572ms total)
T1B54 3393:635 JLINK_ClrBPEx(BPHandle = 0x00000005)  returns 0x00 (0000ms, 0572ms total)
T1B54 3393:635 JLINK_ReadReg(R0)  returns 0x00000000 (0000ms, 0572ms total)
T1B54 3393:638 JLINK_WriteMem(0x20000164, 0x029C Bytes, ...) -- Data:  90 46 89 46 0A 9C 00 F0 5B FB 30 46 FF F7 8E FF ... -- CPU_WriteMem(668 bytes @ 0x20000164)  returns 0x29C (0006ms, 0578ms total)
T1B54 3393:644 JLINK_WriteMem(0x20000400, 0x0164 Bytes, ...) -- Data:  13 20 41 07 08 80 03 49 08 88 00 F0 DF 00 08 80 ... -- CPU_WriteMem(356 bytes @ 0x20000400)  returns 0x164 (0004ms, 0582ms total)
T1B54 3393:648 JLINK_WriteReg(R0, 0x08000400)  returns 0x00 (0000ms, 0582ms total)
T1B54 3393:648 JLINK_WriteReg(R1, 0x00000400)  returns 0x00 (0000ms, 0582ms total)
T1B54 3393:648 JLINK_WriteReg(R2, 0x20000164)  returns 0x00 (0000ms, 0582ms total)
T1B54 3393:648 JLINK_WriteReg(R3, 0x00000000)  returns 0x00 (0000ms, 0582ms total)
T1B54 3393:648 JLINK_WriteReg(R4, 0x00000000)  returns 0x00 (0000ms, 0582ms total)
T1B54 3393:649 JLINK_WriteReg(R5, 0x00000000)  returns 0x00 (0000ms, 0583ms total)
T1B54 3393:649 JLINK_WriteReg(R6, 0x00000000)  returns 0x00 (0000ms, 0583ms total)
T1B54 3393:649 JLINK_WriteReg(R7, 0x00000000)  returns 0x00 (0000ms, 0583ms total)
T1B54 3393:649 JLINK_WriteReg(R8, 0x00000000)  returns 0x00 (0000ms, 0583ms total)
T1B54 3393:649 JLINK_WriteReg(R9, 0x20000160)  returns 0x00 (0000ms, 0583ms total)
T1B54 3393:649 JLINK_WriteReg(R10, 0x00000000)  returns 0x00 (0000ms, 0583ms total)
T1B54 3393:649 JLINK_WriteReg(R11, 0x00000000)  returns 0x00 (0001ms, 0584ms total)
T1B54 3393:650 JLINK_WriteReg(R12, 0x00000000)  returns 0x00 (0000ms, 0584ms total)
T1B54 3393:650 JLINK_WriteReg(R13, 0x20000800)  returns 0x00 (0000ms, 0584ms total)
T1B54 3393:650 JLINK_WriteReg(R14, 0x20000001)  returns 0x00 (0000ms, 0584ms total)
T1B54 3393:650 JLINK_WriteReg(R15, 0x200000F4)  returns 0x00 (0000ms, 0584ms total)
T1B54 3393:650 JLINK_WriteReg(XPSR, 0x01000000)  returns 0x00 (0000ms, 0584ms total)
T1B54 3393:650 JLINK_WriteReg(MSP, 0x20000800)  returns 0x00 (0000ms, 0584ms total)
T1B54 3393:650 JLINK_WriteReg(PSP, 0x20000800)  returns 0x00 (0001ms, 0585ms total)
T1B54 3393:651 JLINK_WriteReg(CFBP, 0x00000000)  returns 0x00 (0000ms, 0585ms total)
T1B54 3393:651 JLINK_SetBPEx(Addr = 0x20000000, Type = 0xFFFFFFF2)  returns 0x00000006 (0000ms, 0585ms total)
T1B54 3393:651 JLINK_Go() (0002ms, 0587ms total)
T1B54 3393:653 JLINK_IsHalted()  returns FALSE (0000ms, 0587ms total)
T1B54 3393:655 JLINK_IsHalted()  returns FALSE (0000ms, 0587ms total)
T1B54 3393:658 JLINK_IsHalted()  returns FALSE (0000ms, 0587ms total)
T1B54 3393:661 JLINK_IsHalted()  returns FALSE (0000ms, 0587ms total)
T1B54 3393:663 JLINK_IsHalted()  returns FALSE (0000ms, 0587ms total)
T1B54 3393:665 JLINK_IsHalted()  returns FALSE (0000ms, 0587ms total)
T1B54 3393:668 JLINK_IsHalted()  returns FALSE (0000ms, 0587ms total)
T1B54 3393:671 JLINK_IsHalted()  returns FALSE (0000ms, 0587ms total)
T1B54 3393:674 JLINK_IsHalted()  returns FALSE (0000ms, 0587ms total)
T1B54 3393:677 JLINK_IsHalted()  returns FALSE (0001ms, 0588ms total)
T1B54 3393:680 JLINK_IsHalted()  returns FALSE (0000ms, 0587ms total)
T1B54 3393:683 JLINK_IsHalted() -- CPU_ReadMem(2 bytes @ 0x20000000)  returns TRUE (0004ms, 0591ms total)
T1B54 3393:687 JLINK_ReadReg(R15)  returns 0x20000000 (0000ms, 0587ms total)
T1B54 3393:687 JLINK_ClrBPEx(BPHandle = 0x00000006)  returns 0x00 (0000ms, 0587ms total)
T1B54 3393:687 JLINK_ReadReg(R0)  returns 0x00000000 (0000ms, 0587ms total)
T1B54 3393:691 JLINK_WriteMem(0x20000164, 0x029C Bytes, ...) -- Data:  00 F0 A6 FB 00 06 FA D5 70 BD 00 00 00 00 02 60 ... -- CPU_WriteMem(668 bytes @ 0x20000164)  returns 0x29C (0006ms, 0593ms total)
T1B54 3393:697 JLINK_WriteMem(0x20000400, 0x0164 Bytes, ...) -- Data:  08 80 70 47 00 00 02 60 4F F0 C0 41 CD 20 08 80 ... -- CPU_WriteMem(356 bytes @ 0x20000400)  returns 0x164 (0003ms, 0596ms total)
T1B54 3393:700 JLINK_WriteReg(R0, 0x08000800)  returns 0x00 (0000ms, 0596ms total)
T1B54 3393:700 JLINK_WriteReg(R1, 0x00000400)  returns 0x00 (0001ms, 0597ms total)
T1B54 3393:701 JLINK_WriteReg(R2, 0x20000164)  returns 0x00 (0000ms, 0597ms total)
T1B54 3393:701 JLINK_WriteReg(R3, 0x00000000)  returns 0x00 (0000ms, 0597ms total)
T1B54 3393:701 JLINK_WriteReg(R4, 0x00000000)  returns 0x00 (0000ms, 0597ms total)
T1B54 3393:701 JLINK_WriteReg(R5, 0x00000000)  returns 0x00 (0000ms, 0597ms total)
T1B54 3393:701 JLINK_WriteReg(R6, 0x00000000)  returns 0x00 (0000ms, 0597ms total)
T1B54 3393:701 JLINK_WriteReg(R7, 0x00000000)  returns 0x00 (0000ms, 0597ms total)
T1B54 3393:701 JLINK_WriteReg(R8, 0x00000000)  returns 0x00 (0001ms, 0598ms total)
T1B54 3393:702 JLINK_WriteReg(R9, 0x20000160)  returns 0x00 (0000ms, 0598ms total)
T1B54 3393:702 JLINK_WriteReg(R10, 0x00000000)  returns 0x00 (0000ms, 0598ms total)
T1B54 3393:702 JLINK_WriteReg(R11, 0x00000000)  returns 0x00 (0000ms, 0598ms total)
T1B54 3393:702 JLINK_WriteReg(R12, 0x00000000)  returns 0x00 (0000ms, 0598ms total)
T1B54 3393:702 JLINK_WriteReg(R13, 0x20000800)  returns 0x00 (0000ms, 0598ms total)
T1B54 3393:702 JLINK_WriteReg(R14, 0x20000001)  returns 0x00 (0000ms, 0598ms total)
T1B54 3393:702 JLINK_WriteReg(R15, 0x200000F4)  returns 0x00 (0001ms, 0599ms total)
T1B54 3393:703 JLINK_WriteReg(XPSR, 0x01000000)  returns 0x00 (0000ms, 0599ms total)
T1B54 3393:703 JLINK_WriteReg(MSP, 0x20000800)  returns 0x00 (0000ms, 0599ms total)
T1B54 3393:703 JLINK_WriteReg(PSP, 0x20000800)  returns 0x00 (0000ms, 0599ms total)
T1B54 3393:703 JLINK_WriteReg(CFBP, 0x00000000)  returns 0x00 (0000ms, 0599ms total)
T1B54 3393:703 JLINK_SetBPEx(Addr = 0x20000000, Type = 0xFFFFFFF2)  returns 0x00000007 (0000ms, 0599ms total)
T1B54 3393:703 JLINK_Go() (0002ms, 0601ms total)
T1B54 3393:705 JLINK_IsHalted()  returns FALSE (0001ms, 0602ms total)
T1B54 3393:708 JLINK_IsHalted()  returns FALSE (0000ms, 0601ms total)
T1B54 3393:710 JLINK_IsHalted()  returns FALSE (0000ms, 0601ms total)
T1B54 3393:712 JLINK_IsHalted()  returns FALSE (0000ms, 0601ms total)
T1B54 3393:714 JLINK_IsHalted()  returns FALSE (0000ms, 0601ms total)
T1B54 3393:717 JLINK_IsHalted()  returns FALSE (0000ms, 0601ms total)
T1B54 3393:720 JLINK_IsHalted()  returns FALSE (0000ms, 0601ms total)
T1B54 3393:723 JLINK_IsHalted()  returns FALSE (0000ms, 0601ms total)
T1B54 3393:725 JLINK_IsHalted()  returns FALSE (0000ms, 0601ms total)
T1B54 3393:732 JLINK_IsHalted()  returns FALSE (0001ms, 0602ms total)
T1B54 3393:735 JLINK_IsHalted()  returns FALSE (0000ms, 0601ms total)
T1B54 3393:738 JLINK_IsHalted() -- CPU_ReadMem(2 bytes @ 0x20000000)  returns TRUE (0004ms, 0605ms total)
T1B54 3393:742 JLINK_ReadReg(R15)  returns 0x20000000 (0000ms, 0601ms total)
T1B54 3393:742 JLINK_ClrBPEx(BPHandle = 0x00000007)  returns 0x00 (0000ms, 0601ms total)
T1B54 3393:742 JLINK_ReadReg(R0)  returns 0x00000000 (0000ms, 0601ms total)
T1B54 3393:745 JLINK_WriteMem(0x20000164, 0x029C Bytes, ...) -- Data:  80 70 AD F8 00 00 69 46 58 46 00 F0 6D F8 AD F8 ... -- CPU_WriteMem(668 bytes @ 0x20000164)  returns 0x29C (0006ms, 0607ms total)
T1B54 3393:751 JLINK_WriteMem(0x20000400, 0x0164 Bytes, ...) -- Data:  D0 00 C0 B2 0A 80 18 80 10 BD 00 00 00 00 02 60 ... -- CPU_WriteMem(356 bytes @ 0x20000400)  returns 0x164 (0004ms, 0611ms total)
T1B54 3393:755 JLINK_WriteReg(R0, 0x08000C00)  returns 0x00 (0000ms, 0611ms total)
T1B54 3393:755 JLINK_WriteReg(R1, 0x00000400)  returns 0x00 (0000ms, 0611ms total)
T1B54 3393:755 JLINK_WriteReg(R2, 0x20000164)  returns 0x00 (0000ms, 0611ms total)
T1B54 3393:755 JLINK_WriteReg(R3, 0x00000000)  returns 0x00 (0000ms, 0611ms total)
T1B54 3393:755 JLINK_WriteReg(R4, 0x00000000)  returns 0x00 (0000ms, 0611ms total)
T1B54 3393:755 JLINK_WriteReg(R5, 0x00000000)  returns 0x00 (0001ms, 0612ms total)
T1B54 3393:756 JLINK_WriteReg(R6, 0x00000000)  returns 0x00 (0000ms, 0612ms total)
T1B54 3393:756 JLINK_WriteReg(R7, 0x00000000)  returns 0x00 (0000ms, 0612ms total)
T1B54 3393:756 JLINK_WriteReg(R8, 0x00000000)  returns 0x00 (0000ms, 0612ms total)
T1B54 3393:756 JLINK_WriteReg(R9, 0x20000160)  returns 0x00 (0000ms, 0612ms total)
T1B54 3393:756 JLINK_WriteReg(R10, 0x00000000)  returns 0x00 (0000ms, 0612ms total)
T1B54 3393:756 JLINK_WriteReg(R11, 0x00000000)  returns 0x00 (0000ms, 0612ms total)
T1B54 3393:756 JLINK_WriteReg(R12, 0x00000000)  returns 0x00 (0000ms, 0612ms total)
T1B54 3393:756 JLINK_WriteReg(R13, 0x20000800)  returns 0x00 (0000ms, 0612ms total)
T1B54 3393:756 JLINK_WriteReg(R14, 0x20000001)  returns 0x00 (0001ms, 0613ms total)
T1B54 3393:757 JLINK_WriteReg(R15, 0x200000F4)  returns 0x00 (0000ms, 0613ms total)
T1B54 3393:757 JLINK_WriteReg(XPSR, 0x01000000)  returns 0x00 (0000ms, 0613ms total)
T1B54 3393:757 JLINK_WriteReg(MSP, 0x20000800)  returns 0x00 (0000ms, 0613ms total)
T1B54 3393:757 JLINK_WriteReg(PSP, 0x20000800)  returns 0x00 (0000ms, 0613ms total)
T1B54 3393:757 JLINK_WriteReg(CFBP, 0x00000000)  returns 0x00 (0000ms, 0613ms total)
T1B54 3393:757 JLINK_SetBPEx(Addr = 0x20000000, Type = 0xFFFFFFF2)  returns 0x00000008 (0000ms, 0613ms total)
T1B54 3393:757 JLINK_Go() (0002ms, 0615ms total)
T1B54 3393:759 JLINK_IsHalted()  returns FALSE (0001ms, 0616ms total)
T1B54 3393:762 JLINK_IsHalted()  returns FALSE (0000ms, 0615ms total)
T1B54 3393:765 JLINK_IsHalted()  returns FALSE (0000ms, 0615ms total)
T1B54 3393:767 JLINK_IsHalted()  returns FALSE (0000ms, 0615ms total)
T1B54 3393:769 JLINK_IsHalted()  returns FALSE (0000ms, 0615ms total)
T1B54 3393:772 JLINK_IsHalted()  returns FALSE (0000ms, 0615ms total)
T1B54 3393:775 JLINK_IsHalted()  returns FALSE (0000ms, 0615ms total)
T1B54 3393:777 JLINK_IsHalted()  returns FALSE (0001ms, 0616ms total)
T1B54 3393:785 JLINK_IsHalted()  returns FALSE (0000ms, 0615ms total)
T1B54 3393:787 JLINK_IsHalted()  returns FALSE (0001ms, 0616ms total)
T1B54 3393:790 JLINK_IsHalted() -- CPU_ReadMem(2 bytes @ 0x20000000)  returns TRUE (0004ms, 0619ms total)
T1B54 3393:794 JLINK_ReadReg(R15)  returns 0x20000000 (0000ms, 0615ms total)
T1B54 3393:794 JLINK_ClrBPEx(BPHandle = 0x00000008)  returns 0x00 (0000ms, 0615ms total)
T1B54 3393:794 JLINK_ReadReg(R0)  returns 0x00000000 (0000ms, 0615ms total)
T1B54 3393:796 JLINK_WriteMem(0x20000164, 0x029C Bytes, ...) -- Data:  24 21 11 80 03 49 08 80 25 23 13 80 00 0A 08 80 ... -- CPU_WriteMem(668 bytes @ 0x20000164)  returns 0x29C (0006ms, 0621ms total)
T1B54 3393:802 JLINK_WriteMem(0x20000400, 0x0164 Bytes, ...) -- Data:  FF F7 9C F8 FF F7 2A F8 FF F7 DA FD 00 F0 90 FC ... -- CPU_WriteMem(356 bytes @ 0x20000400)  returns 0x164 (0004ms, 0625ms total)
T1B54 3393:806 JLINK_WriteReg(R0, 0x08001000)  returns 0x00 (0000ms, 0625ms total)
T1B54 3393:806 JLINK_WriteReg(R1, 0x00000400)  returns 0x00 (0000ms, 0625ms total)
T1B54 3393:806 JLINK_WriteReg(R2, 0x20000164)  returns 0x00 (0000ms, 0625ms total)
T1B54 3393:806 JLINK_WriteReg(R3, 0x00000000)  returns 0x00 (0000ms, 0625ms total)
T1B54 3393:806 JLINK_WriteReg(R4, 0x00000000)  returns 0x00 (0001ms, 0626ms total)
T1B54 3393:807 JLINK_WriteReg(R5, 0x00000000)  returns 0x00 (0000ms, 0626ms total)
T1B54 3393:807 JLINK_WriteReg(R6, 0x00000000)  returns 0x00 (0000ms, 0626ms total)
T1B54 3393:807 JLINK_WriteReg(R7, 0x00000000)  returns 0x00 (0000ms, 0626ms total)
T1B54 3393:807 JLINK_WriteReg(R8, 0x00000000)  returns 0x00 (0000ms, 0626ms total)
T1B54 3393:807 JLINK_WriteReg(R9, 0x20000160)  returns 0x00 (0000ms, 0626ms total)
T1B54 3393:807 JLINK_WriteReg(R10, 0x00000000)  returns 0x00 (0000ms, 0626ms total)
T1B54 3393:807 JLINK_WriteReg(R11, 0x00000000)  returns 0x00 (0001ms, 0627ms total)
T1B54 3393:808 JLINK_WriteReg(R12, 0x00000000)  returns 0x00 (0000ms, 0627ms total)
T1B54 3393:808 JLINK_WriteReg(R13, 0x20000800)  returns 0x00 (0000ms, 0627ms total)
T1B54 3393:808 JLINK_WriteReg(R14, 0x20000001)  returns 0x00 (0000ms, 0627ms total)
T1B54 3393:808 JLINK_WriteReg(R15, 0x200000F4)  returns 0x00 (0000ms, 0627ms total)
T1B54 3393:808 JLINK_WriteReg(XPSR, 0x01000000)  returns 0x00 (0000ms, 0627ms total)
T1B54 3393:808 JLINK_WriteReg(MSP, 0x20000800)  returns 0x00 (0000ms, 0627ms total)
T1B54 3393:808 JLINK_WriteReg(PSP, 0x20000800)  returns 0x00 (0000ms, 0627ms total)
T1B54 3393:808 JLINK_WriteReg(CFBP, 0x00000000)  returns 0x00 (0000ms, 0627ms total)
T1B54 3393:808 JLINK_SetBPEx(Addr = 0x20000000, Type = 0xFFFFFFF2)  returns 0x00000009 (0001ms, 0628ms total)
T1B54 3393:809 JLINK_Go() (0001ms, 0629ms total)
T1B54 3393:810 JLINK_IsHalted()  returns FALSE (0001ms, 0630ms total)
T1B54 3393:826 JLINK_IsHalted()  returns FALSE (0000ms, 0629ms total)
T1B54 3393:829 JLINK_IsHalted()  returns FALSE (0000ms, 0629ms total)
T1B54 3393:832 JLINK_IsHalted()  returns FALSE (0000ms, 0629ms total)
T1B54 3393:840 JLINK_IsHalted()  returns FALSE (0000ms, 0629ms total)
T1B54 3393:843 JLINK_IsHalted() -- CPU_ReadMem(2 bytes @ 0x20000000)  returns TRUE (0004ms, 0633ms total)
T1B54 3393:847 JLINK_ReadReg(R15)  returns 0x20000000 (0000ms, 0629ms total)
T1B54 3393:847 JLINK_ClrBPEx(BPHandle = 0x00000009)  returns 0x00 (0000ms, 0629ms total)
T1B54 3393:847 JLINK_ReadReg(R0)  returns 0x00000000 (0000ms, 0629ms total)
T1B54 3393:849 JLINK_WriteMem(0x20000164, 0x029C Bytes, ...) -- Data:  A4 F1 08 00 07 28 05 D8 26 21 05 20 FF F7 AA FD ... -- CPU_WriteMem(668 bytes @ 0x20000164)  returns 0x29C (0006ms, 0635ms total)
T1B54 3393:855 JLINK_WriteMem(0x20000400, 0x0164 Bytes, ...) -- Data:  D0 E9 03 40 04 43 6F F3 0A 02 23 43 13 43 CB 60 ... -- CPU_WriteMem(356 bytes @ 0x20000400)  returns 0x164 (0004ms, 0639ms total)
T1B54 3393:859 JLINK_WriteReg(R0, 0x08001400)  returns 0x00 (0000ms, 0639ms total)
T1B54 3393:859 JLINK_WriteReg(R1, 0x00000400)  returns 0x00 (0000ms, 0639ms total)
T1B54 3393:859 JLINK_WriteReg(R2, 0x20000164)  returns 0x00 (0000ms, 0639ms total)
T1B54 3393:859 JLINK_WriteReg(R3, 0x00000000)  returns 0x00 (0000ms, 0639ms total)
T1B54 3393:859 JLINK_WriteReg(R4, 0x00000000)  returns 0x00 (0000ms, 0639ms total)
T1B54 3393:859 JLINK_WriteReg(R5, 0x00000000)  returns 0x00 (0001ms, 0640ms total)
T1B54 3393:860 JLINK_WriteReg(R6, 0x00000000)  returns 0x00 (0000ms, 0640ms total)
T1B54 3393:860 JLINK_WriteReg(R7, 0x00000000)  returns 0x00 (0000ms, 0640ms total)
T1B54 3393:860 JLINK_WriteReg(R8, 0x00000000)  returns 0x00 (0000ms, 0640ms total)
T1B54 3393:860 JLINK_WriteReg(R9, 0x20000160)  returns 0x00 (0000ms, 0640ms total)
T1B54 3393:860 JLINK_WriteReg(R10, 0x00000000)  returns 0x00 (0000ms, 0640ms total)
T1B54 3393:860 JLINK_WriteReg(R11, 0x00000000)  returns 0x00 (0000ms, 0640ms total)
T1B54 3393:860 JLINK_WriteReg(R12, 0x00000000)  returns 0x00 (0001ms, 0641ms total)
T1B54 3393:861 JLINK_WriteReg(R13, 0x20000800)  returns 0x00 (0000ms, 0641ms total)
T1B54 3393:861 JLINK_WriteReg(R14, 0x20000001)  returns 0x00 (0000ms, 0641ms total)
T1B54 3393:861 JLINK_WriteReg(R15, 0x200000F4)  returns 0x00 (0000ms, 0641ms total)
T1B54 3393:861 JLINK_WriteReg(XPSR, 0x01000000)  returns 0x00 (0000ms, 0641ms total)
T1B54 3393:861 JLINK_WriteReg(MSP, 0x20000800)  returns 0x00 (0000ms, 0641ms total)
T1B54 3393:861 JLINK_WriteReg(PSP, 0x20000800)  returns 0x00 (0000ms, 0641ms total)
T1B54 3393:861 JLINK_WriteReg(CFBP, 0x00000000)  returns 0x00 (0000ms, 0641ms total)
T1B54 3393:861 JLINK_SetBPEx(Addr = 0x20000000, Type = 0xFFFFFFF2)  returns 0x0000000A (0001ms, 0642ms total)
T1B54 3393:862 JLINK_Go() (0001ms, 0643ms total)
T1B54 3393:863 JLINK_IsHalted()  returns FALSE (0001ms, 0644ms total)
T1B54 3393:866 JLINK_IsHalted()  returns FALSE (0000ms, 0643ms total)
T1B54 3393:868 JLINK_IsHalted()  returns FALSE (0000ms, 0643ms total)
T1B54 3393:870 JLINK_IsHalted()  returns FALSE (0000ms, 0643ms total)
T1B54 3393:872 JLINK_IsHalted()  returns FALSE (0000ms, 0643ms total)
T1B54 3393:875 JLINK_IsHalted()  returns FALSE (0000ms, 0643ms total)
T1B54 3393:878 JLINK_IsHalted()  returns FALSE (0000ms, 0643ms total)
T1B54 3393:881 JLINK_IsHalted()  returns FALSE (0001ms, 0644ms total)
T1B54 3393:884 JLINK_IsHalted()  returns FALSE (0000ms, 0643ms total)
T1B54 3393:886 JLINK_IsHalted()  returns FALSE (0000ms, 0643ms total)
T1B54 3393:889 JLINK_IsHalted()  returns FALSE (0000ms, 0643ms total)
T1B54 3393:892 JLINK_IsHalted()  returns FALSE (0000ms, 0643ms total)
T1B54 3393:895 JLINK_IsHalted() -- CPU_ReadMem(2 bytes @ 0x20000000)  returns TRUE (0004ms, 0647ms total)
T1B54 3393:899 JLINK_ReadReg(R15)  returns 0x20000000 (0000ms, 0643ms total)
T1B54 3393:899 JLINK_ClrBPEx(BPHandle = 0x0000000A)  returns 0x00 (0000ms, 0643ms total)
T1B54 3393:899 JLINK_ReadReg(R0)  returns 0x00000000 (0000ms, 0643ms total)
T1B54 3393:901 JLINK_WriteMem(0x20000164, 0x029C Bytes, ...) -- Data:  00 21 40 46 FF F7 30 FF EC 61 06 20 28 70 CD E7 ... -- CPU_WriteMem(668 bytes @ 0x20000164)  returns 0x29C (0006ms, 0649ms total)
T1B54 3393:907 JLINK_WriteMem(0x20000400, 0x0164 Bytes, ...) -- Data:  B7 20 08 80 02 49 08 88 00 F0 DF 00 08 80 70 47 ... -- CPU_WriteMem(356 bytes @ 0x20000400)  returns 0x164 (0004ms, 0653ms total)
T1B54 3393:911 JLINK_WriteReg(R0, 0x08001800)  returns 0x00 (0000ms, 0653ms total)
T1B54 3393:911 JLINK_WriteReg(R1, 0x00000400)  returns 0x00 (0000ms, 0653ms total)
T1B54 3393:911 JLINK_WriteReg(R2, 0x20000164)  returns 0x00 (0000ms, 0653ms total)
T1B54 3393:911 JLINK_WriteReg(R3, 0x00000000)  returns 0x00 (0000ms, 0653ms total)
T1B54 3393:911 JLINK_WriteReg(R4, 0x00000000)  returns 0x00 (0000ms, 0653ms total)
T1B54 3393:911 JLINK_WriteReg(R5, 0x00000000)  returns 0x00 (0000ms, 0653ms total)
T1B54 3393:911 JLINK_WriteReg(R6, 0x00000000)  returns 0x00 (0001ms, 0654ms total)
T1B54 3393:912 JLINK_WriteReg(R7, 0x00000000)  returns 0x00 (0000ms, 0654ms total)
T1B54 3393:912 JLINK_WriteReg(R8, 0x00000000)  returns 0x00 (0000ms, 0654ms total)
T1B54 3393:912 JLINK_WriteReg(R9, 0x20000160)  returns 0x00 (0000ms, 0654ms total)
T1B54 3393:912 JLINK_WriteReg(R10, 0x00000000)  returns 0x00 (0000ms, 0654ms total)
T1B54 3393:912 JLINK_WriteReg(R11, 0x00000000)  returns 0x00 (0000ms, 0654ms total)
T1B54 3393:912 JLINK_WriteReg(R12, 0x00000000)  returns 0x00 (0000ms, 0654ms total)
T1B54 3393:912 JLINK_WriteReg(R13, 0x20000800)  returns 0x00 (0000ms, 0654ms total)
T1B54 3393:912 JLINK_WriteReg(R14, 0x20000001)  returns 0x00 (0000ms, 0654ms total)
T1B54 3393:912 JLINK_WriteReg(R15, 0x200000F4)  returns 0x00 (0001ms, 0655ms total)
T1B54 3393:913 JLINK_WriteReg(XPSR, 0x01000000)  returns 0x00 (0000ms, 0655ms total)
T1B54 3393:913 JLINK_WriteReg(MSP, 0x20000800)  returns 0x00 (0000ms, 0655ms total)
T1B54 3393:913 JLINK_WriteReg(PSP, 0x20000800)  returns 0x00 (0000ms, 0655ms total)
T1B54 3393:913 JLINK_WriteReg(CFBP, 0x00000000)  returns 0x00 (0000ms, 0655ms total)
T1B54 3393:913 JLINK_SetBPEx(Addr = 0x20000000, Type = 0xFFFFFFF2)  returns 0x0000000B (0000ms, 0655ms total)
T1B54 3393:913 JLINK_Go() (0002ms, 0657ms total)
T1B54 3393:915 JLINK_IsHalted()  returns FALSE (0001ms, 0658ms total)
T1B54 3393:923 JLINK_IsHalted()  returns FALSE (0000ms, 0657ms total)
T1B54 3393:925 JLINK_IsHalted()  returns FALSE (0000ms, 0657ms total)
T1B54 3393:927 JLINK_IsHalted()  returns FALSE (0001ms, 0658ms total)
T1B54 3393:930 JLINK_IsHalted()  returns FALSE (0000ms, 0657ms total)
T1B54 3393:932 JLINK_IsHalted()  returns FALSE (0000ms, 0657ms total)
T1B54 3393:934 JLINK_IsHalted()  returns FALSE (0000ms, 0657ms total)
T1B54 3393:936 JLINK_IsHalted()  returns FALSE (0000ms, 0657ms total)
T1B54 3393:938 JLINK_IsHalted()  returns FALSE (0000ms, 0657ms total)
T1B54 3393:941 JLINK_IsHalted()  returns FALSE (0000ms, 0657ms total)
T1B54 3393:949 JLINK_IsHalted() -- CPU_ReadMem(2 bytes @ 0x20000000)  returns TRUE (0004ms, 0661ms total)
T1B54 3393:953 JLINK_ReadReg(R15)  returns 0x20000000 (0000ms, 0657ms total)
T1B54 3393:953 JLINK_ClrBPEx(BPHandle = 0x0000000B)  returns 0x00 (0000ms, 0657ms total)
T1B54 3393:953 JLINK_ReadReg(R0)  returns 0x00000000 (0000ms, 0657ms total)
T1B54 3393:955 JLINK_WriteMem(0x20000164, 0x029C Bytes, ...) -- Data:  55 F9 0A 20 FF F7 3E F9 17 20 FF F7 D1 F9 16 20 ... -- CPU_WriteMem(668 bytes @ 0x20000164)  returns 0x29C (0006ms, 0663ms total)
T1B54 3393:961 JLINK_WriteMem(0x20000400, 0x0164 Bytes, ...) -- Data:  70 47 00 00 00 00 02 60 0F B4 05 4B 10 B5 03 A9 ... -- CPU_WriteMem(356 bytes @ 0x20000400)  returns 0x164 (0004ms, 0667ms total)
T1B54 3393:965 JLINK_WriteReg(R0, 0x08001C00)  returns 0x00 (0000ms, 0667ms total)
T1B54 3393:965 JLINK_WriteReg(R1, 0x00000400)  returns 0x00 (0000ms, 0667ms total)
T1B54 3393:965 JLINK_WriteReg(R2, 0x20000164)  returns 0x00 (0000ms, 0667ms total)
T1B54 3393:965 JLINK_WriteReg(R3, 0x00000000)  returns 0x00 (0000ms, 0667ms total)
T1B54 3393:965 JLINK_WriteReg(R4, 0x00000000)  returns 0x00 (0000ms, 0667ms total)
T1B54 3393:965 JLINK_WriteReg(R5, 0x00000000)  returns 0x00 (0000ms, 0667ms total)
T1B54 3393:965 JLINK_WriteReg(R6, 0x00000000)  returns 0x00 (0000ms, 0667ms total)
T1B54 3393:965 JLINK_WriteReg(R7, 0x00000000)  returns 0x00 (0000ms, 0667ms total)
T1B54 3393:965 JLINK_WriteReg(R8, 0x00000000)  returns 0x00 (0000ms, 0667ms total)
T1B54 3393:965 JLINK_WriteReg(R9, 0x20000160)  returns 0x00 (0000ms, 0667ms total)
T1B54 3393:965 JLINK_WriteReg(R10, 0x00000000)  returns 0x00 (0000ms, 0667ms total)
T1B54 3393:965 JLINK_WriteReg(R11, 0x00000000)  returns 0x00 (0000ms, 0667ms total)
T1B54 3393:965 JLINK_WriteReg(R12, 0x00000000)  returns 0x00 (0000ms, 0667ms total)
T1B54 3393:965 JLINK_WriteReg(R13, 0x20000800)  returns 0x00 (0000ms, 0667ms total)
T1B54 3393:965 JLINK_WriteReg(R14, 0x20000001)  returns 0x00 (0001ms, 0668ms total)
T1B54 3393:966 JLINK_WriteReg(R15, 0x200000F4)  returns 0x00 (0000ms, 0668ms total)
T1B54 3393:966 JLINK_WriteReg(XPSR, 0x01000000)  returns 0x00 (0000ms, 0668ms total)
T1B54 3393:966 JLINK_WriteReg(MSP, 0x20000800)  returns 0x00 (0000ms, 0668ms total)
T1B54 3393:966 JLINK_WriteReg(PSP, 0x20000800)  returns 0x00 (0000ms, 0668ms total)
T1B54 3393:966 JLINK_WriteReg(CFBP, 0x00000000)  returns 0x00 (0000ms, 0668ms total)
T1B54 3393:966 JLINK_SetBPEx(Addr = 0x20000000, Type = 0xFFFFFFF2)  returns 0x0000000C (0000ms, 0668ms total)
T1B54 3393:966 JLINK_Go() (0002ms, 0670ms total)
T1B54 3393:968 JLINK_IsHalted()  returns FALSE (0001ms, 0671ms total)
T1B54 3393:972 JLINK_IsHalted()  returns FALSE (0000ms, 0670ms total)
T1B54 3393:974 JLINK_IsHalted()  returns FALSE (0000ms, 0670ms total)
T1B54 3393:977 JLINK_IsHalted()  returns FALSE (0000ms, 0670ms total)
T1B54 3393:980 JLINK_IsHalted()  returns FALSE (0000ms, 0670ms total)
T1B54 3393:982 JLINK_IsHalted()  returns FALSE (0000ms, 0670ms total)
T1B54 3393:985 JLINK_IsHalted()  returns FALSE (0000ms, 0670ms total)
T1B54 3393:988 JLINK_IsHalted()  returns FALSE (0000ms, 0670ms total)
T1B54 3393:990 JLINK_IsHalted()  returns FALSE (0000ms, 0670ms total)
T1B54 3393:993 JLINK_IsHalted()  returns FALSE (0000ms, 0670ms total)
T1B54 3393:996 JLINK_IsHalted()  returns FALSE (0000ms, 0670ms total)
T1B54 3393:999 JLINK_IsHalted()  returns FALSE (0000ms, 0670ms total)
T1B54 3394:002 JLINK_IsHalted() -- CPU_ReadMem(2 bytes @ 0x20000000)  returns TRUE (0003ms, 0673ms total)
T1B54 3394:005 JLINK_ReadReg(R15)  returns 0x20000000 (0000ms, 0670ms total)
T1B54 3394:005 JLINK_ClrBPEx(BPHandle = 0x0000000C)  returns 0x00 (0000ms, 0670ms total)
T1B54 3394:005 JLINK_ReadReg(R0)  returns 0x00000000 (0001ms, 0671ms total)
T1B54 3394:008 JLINK_WriteMem(0x20000164, 0x029C Bytes, ...) -- Data:  F6 D1 06 E0 6D 1C 85 42 FC DB 19 F8 05 10 00 29 ... -- CPU_WriteMem(668 bytes @ 0x20000164)  returns 0x29C (0006ms, 0677ms total)
T1B54 3394:014 JLINK_WriteMem(0x20000400, 0x0164 Bytes, ...) -- Data:  7A FD 02 21 20 46 FE F7 76 FD 09 A0 FF F7 FC FD ... -- CPU_WriteMem(356 bytes @ 0x20000400)  returns 0x164 (0004ms, 0681ms total)
T1B54 3394:018 JLINK_WriteReg(R0, 0x08002000)  returns 0x00 (0000ms, 0681ms total)
T1B54 3394:018 JLINK_WriteReg(R1, 0x00000340)  returns 0x00 (0000ms, 0681ms total)
T1B54 3394:018 JLINK_WriteReg(R2, 0x20000164)  returns 0x00 (0000ms, 0681ms total)
T1B54 3394:018 JLINK_WriteReg(R3, 0x00000000)  returns 0x00 (0000ms, 0681ms total)
T1B54 3394:018 JLINK_WriteReg(R4, 0x00000000)  returns 0x00 (0000ms, 0681ms total)
T1B54 3394:018 JLINK_WriteReg(R5, 0x00000000)  returns 0x00 (0001ms, 0682ms total)
T1B54 3394:019 JLINK_WriteReg(R6, 0x00000000)  returns 0x00 (0000ms, 0682ms total)
T1B54 3394:019 JLINK_WriteReg(R7, 0x00000000)  returns 0x00 (0000ms, 0682ms total)
T1B54 3394:019 JLINK_WriteReg(R8, 0x00000000)  returns 0x00 (0000ms, 0682ms total)
T1B54 3394:019 JLINK_WriteReg(R9, 0x20000160)  returns 0x00 (0000ms, 0682ms total)
T1B54 3394:019 JLINK_WriteReg(R10, 0x00000000)  returns 0x00 (0000ms, 0682ms total)
T1B54 3394:019 JLINK_WriteReg(R11, 0x00000000)  returns 0x00 (0000ms, 0682ms total)
T1B54 3394:019 JLINK_WriteReg(R12, 0x00000000)  returns 0x00 (0000ms, 0682ms total)
T1B54 3394:019 JLINK_WriteReg(R13, 0x20000800)  returns 0x00 (0000ms, 0682ms total)
T1B54 3394:019 JLINK_WriteReg(R14, 0x20000001)  returns 0x00 (0001ms, 0683ms total)
T1B54 3394:020 JLINK_WriteReg(R15, 0x200000F4)  returns 0x00 (0000ms, 0683ms total)
T1B54 3394:020 JLINK_WriteReg(XPSR, 0x01000000)  returns 0x00 (0000ms, 0683ms total)
T1B54 3394:020 JLINK_WriteReg(MSP, 0x20000800)  returns 0x00 (0000ms, 0683ms total)
T1B54 3394:020 JLINK_WriteReg(PSP, 0x20000800)  returns 0x00 (0000ms, 0683ms total)
T1B54 3394:020 JLINK_WriteReg(CFBP, 0x00000000)  returns 0x00 (0000ms, 0683ms total)
T1B54 3394:020 JLINK_SetBPEx(Addr = 0x20000000, Type = 0xFFFFFFF2)  returns 0x0000000D (0000ms, 0683ms total)
T1B54 3394:020 JLINK_Go() (0002ms, 0685ms total)
T1B54 3394:022 JLINK_IsHalted()  returns FALSE (0001ms, 0686ms total)
T1B54 3394:025 JLINK_IsHalted()  returns FALSE (0000ms, 0685ms total)
T1B54 3394:027 JLINK_IsHalted()  returns FALSE (0000ms, 0685ms total)
T1B54 3394:029 JLINK_IsHalted()  returns FALSE (0000ms, 0685ms total)
T1B54 3394:031 JLINK_IsHalted()  returns FALSE (0000ms, 0685ms total)
T1B54 3394:033 JLINK_IsHalted()  returns FALSE (0000ms, 0685ms total)
T1B54 3394:035 JLINK_IsHalted()  returns FALSE (0000ms, 0685ms total)
T1B54 3394:037 JLINK_IsHalted()  returns FALSE (0000ms, 0685ms total)
T1B54 3394:039 JLINK_IsHalted()  returns FALSE (0000ms, 0685ms total)
T1B54 3394:041 JLINK_IsHalted()  returns FALSE (0000ms, 0685ms total)
T1B54 3394:044 JLINK_IsHalted()  returns FALSE (0000ms, 0685ms total)
T1B54 3394:046 JLINK_IsHalted()  returns FALSE (0000ms, 0685ms total)
T1B54 3394:048 JLINK_IsHalted() -- CPU_ReadMem(2 bytes @ 0x20000000)  returns TRUE (0003ms, 0688ms total)
T1B54 3394:052 JLINK_ReadReg(R15)  returns 0x20000000 (0000ms, 0685ms total)
T1B54 3394:052 JLINK_ClrBPEx(BPHandle = 0x0000000D)  returns 0x00 (0000ms, 0685ms total)
T1B54 3394:052 JLINK_ReadReg(R0)  returns 0x00000000 (0000ms, 0685ms total)
T1B54 3394:052 JLINK_WriteReg(R0, 0x00000002)  returns 0x00 (0000ms, 0685ms total)
T1B54 3394:052 JLINK_WriteReg(R1, 0x00000340)  returns 0x00 (0000ms, 0685ms total)
T1B54 3394:052 JLINK_WriteReg(R2, 0x20000164)  returns 0x00 (0001ms, 0686ms total)
T1B54 3394:053 JLINK_WriteReg(R3, 0x00000000)  returns 0x00 (0000ms, 0686ms total)
T1B54 3394:053 JLINK_WriteReg(R4, 0x00000000)  returns 0x00 (0000ms, 0686ms total)
T1B54 3394:053 JLINK_WriteReg(R5, 0x00000000)  returns 0x00 (0000ms, 0686ms total)
T1B54 3394:053 JLINK_WriteReg(R6, 0x00000000)  returns 0x00 (0000ms, 0686ms total)
T1B54 3394:053 JLINK_WriteReg(R7, 0x00000000)  returns 0x00 (0000ms, 0686ms total)
T1B54 3394:053 JLINK_WriteReg(R8, 0x00000000)  returns 0x00 (0000ms, 0686ms total)
T1B54 3394:053 JLINK_WriteReg(R9, 0x20000160)  returns 0x00 (0001ms, 0687ms total)
